
**** 05/22/23 12:02:11 **** PSpice 22.1.0 (9 December 2022) *** ID# 0 ********

 ** Profile: "SCHEMATIC1-montecarlo_timp"  [ C:\Miruna\PROIECT_ORCAD\Proiect-PSpiceFiles\SCHEMATIC1\montecarlo_timp.sim ] 


 ****     CIRCUIT DESCRIPTION


******************************************************************************




** Creating circuit file "montecarlo_timp.cir" 
** WARNING: THIS AUTOMATICALLY GENERATED FILE MAY BE OVERWRITTEN BY SUBSEQUENT SIMULATIONS

*Libraries: 
* Profile Libraries :
* Local Libraries :
.LIB "../../../dportocala.lib" 
* From [PSPICE NETLIST] section of C:\SPB_Data\cdssetup\OrCAD_PSpice\22.1.0\PSpice.ini file:
.lib "nom.lib" 

*Analysis directives: 
.TRAN  0 10ms 0 
.MC 50 TRAN V([OUT]) YMAX OUTPUT ALL SEED=200 
.OPTIONS ADVCONV
.PROBE64 V(alias(*)) I(alias(*)) W(alias(*)) D(alias(*)) NOISE(alias(*)) 
.INC "..\SCHEMATIC1.net" 



**** INCLUDING SCHEMATIC1.net ****
* source PROIECT
Q_Q1         N00177 N00075 0 Q2N2222
Q_Q2         N00075 N00075 0 Q2N2222
R_R3         N00075 VCC R_R3 38.8k TC=0,0 
.model        R_R3 RES R=1 DEV=0.5% TC1=0 TC2=0
R_Rsenzor         N00177 VCC  {r} TC=0,0 
R_R5         N00390 N00477 R_R5 1k TC=0,0 
.model        R_R5 RES R=1 DEV=0.5% TC1=0 TC2=0
R_R6         0 N00477 R_R6 1.78k TC=0,0 
.model        R_R6 RES R=1 DEV=0.5% TC1=0 TC2=0
R_R7         N00618 N00681 R_R7 1.78k TC=0,0 
.model        R_R7 RES R=1 DEV=0.5% TC1=0 TC2=0
R_R8         REF1 N00618 R_R8 1k TC=0,0 
.model        R_R8 RES R=1 DEV=0.5% TC1=0 TC2=0
R_R9         REF2 N00786 R_R9 1k TC=0,0 
.model        R_R9 RES R=1 DEV=0.5% TC1=0 TC2=0
R_R10         N00786 OUT R_R10 2.84k TC=0,0 
.model        R_R10 RES R=1 DEV=0.5% TC1=0 TC2=0
R_R11         OUT N01788 R_R11 816 TC=0,0 
.model        R_R11 RES R=1 DEV=0.5% TC1=0 TC2=0
Q_Q3         N01792 N01788 0 Q2N2222
R_R12         N02007 OUT R_R12 768 TC=0,0 
.model        R_R12 RES R=1 DEV=0.5% TC1=0 TC2=0
R_RL         N01792 VCC R_RL 464 TC=0,0 
.model        R_RL RES R=1 DEV=0.5% TC1=0 TC2=0
V_V1         VCC 0 17V
V_V2         -VCC 0 -17V
R_R14         N02701 VCC R_R14 1k TC=0,0 
.model        R_R14 RES R=1 DEV=0.5% TC1=0 TC2=0
R_R15         0 N02701 R_R15 156 TC=0,0 
.model        R_R15 RES R=1 DEV=0.5% TC1=0 TC2=0
R_R16         N03121 VCC R_R16 665 TC=0,0 
.model        R_R16 RES R=1 DEV=0.5% TC1=0 TC2=0
R_R17         0 N03121 R_R17 1k TC=0,0 
.model        R_R17 RES R=1 DEV=0.5% TC1=0 TC2=0
D_Dportocala         N02007 0 Dportocala 
X_U4A         N00786 N00681 VCC -VCC OUT LM358
X_U4B         N00477 N00618 VCC -VCC N00681 LM358
X_U5A         N00177 N00390 VCC -VCC N00390 LM358
X_U5B         N03121 REF2 VCC -VCC REF2 LM358
X_U6A         N02701 REF1 VCC -VCC REF1 LM358
D_Dportocala1         N12559 0 Dportocala 
V_V3         N12559 0 4V
.PARAM  r=15k

**** RESUMING montecarlo_timp.cir ****
.END

**** 05/22/23 12:02:11 **** PSpice 22.1.0 (9 December 2022) *** ID# 0 ********

 ** Profile: "SCHEMATIC1-montecarlo_timp"  [ C:\Miruna\PROIECT_ORCAD\Proiect-PSpiceFiles\SCHEMATIC1\montecarlo_timp.sim ] 


 ****     Diode MODEL PARAMETERS


******************************************************************************




               Dportocala      X_U4A.x_lm358.dx 
          IS   10.013000E-21  800.000000E-18 
           N    1.6367                       
          RS    9.5575          1            


               X_U4A.x_lm358.dy 
          IS  800.000000E-18 
          RS    1.000000E-03 
         CJO   10.000000E-12 


               X_U4B.x_lm358.dx 
          IS  800.000000E-18 
          RS    1            


               X_U4B.x_lm358.dy 
          IS  800.000000E-18 
          RS    1.000000E-03 
         CJO   10.000000E-12 


               X_U5A.x_lm358.dx 
          IS  800.000000E-18 
          RS    1            


               X_U5A.x_lm358.dy 
          IS  800.000000E-18 
          RS    1.000000E-03 
         CJO   10.000000E-12 


               X_U5B.x_lm358.dx 
          IS  800.000000E-18 
          RS    1            


               X_U5B.x_lm358.dy 
          IS  800.000000E-18 
          RS    1.000000E-03 
         CJO   10.000000E-12 


               X_U6A.x_lm358.dx 
          IS  800.000000E-18 
          RS    1            


               X_U6A.x_lm358.dy 
          IS  800.000000E-18 
          RS    1.000000E-03 
         CJO   10.000000E-12 


**** 05/22/23 12:02:11 **** PSpice 22.1.0 (9 December 2022) *** ID# 0 ********

 ** Profile: "SCHEMATIC1-montecarlo_timp"  [ C:\Miruna\PROIECT_ORCAD\Proiect-PSpiceFiles\SCHEMATIC1\montecarlo_timp.sim ] 


 ****     BJT MODEL PARAMETERS


******************************************************************************




               Q2N2222         X_U4A.x_lm358.qx 
               NPN             PNP             
       LEVEL    1               1            
          IS   14.340000E-15  800.000000E-18 
          BF  255.9           166.7          
          NF    1               1            
         VAF   74.03                         
         IKF     .2847                       
         ISE   14.340000E-15                 
          NE    1.307                        
          BR    6.092           1            
          NR    1               1            
         ISS    0               0            
          RB   10                            
          RE    0               0            
          RC    1               0            
         CJE   22.010000E-12    0            
         VJE     .75             .75         
         MJE     .377                        
         CJC    7.306000E-12    0            
         VJC     .75             .75         
         MJC     .3416           .33         
        XCJC    1               1            
         CJS    0               0            
         VJS     .75             .75         
          TF  411.100000E-12                 
         XTF    3                            
         VTF    1.7                          
         ITF     .6                          
          TR   46.910000E-09                 
         XTB    1.5                          
          KF    0               0            
          AF    1               1            
          CN    2.42            2.2          
           D     .87             .52         


               X_U4B.x_lm358.qx 
               PNP             
       LEVEL    1            
          IS  800.000000E-18 
          BF  166.7          
          NF    1            
          BR    1            
          NR    1            
         ISS    0            
          RE    0            
          RC    0            
         CJE    0            
         VJE     .75         
         CJC    0            
         VJC     .75         
         MJC     .33         
        XCJC    1            
         CJS    0            
         VJS     .75         
          KF    0            
          AF    1            
          CN    2.2          
           D     .52         


               X_U5A.x_lm358.qx 
               PNP             
       LEVEL    1            
          IS  800.000000E-18 
          BF  166.7          
          NF    1            
          BR    1            
          NR    1            
         ISS    0            
          RE    0            
          RC    0            
         CJE    0            
         VJE     .75         
         CJC    0            
         VJC     .75         
         MJC     .33         
        XCJC    1            
         CJS    0            
         VJS     .75         
          KF    0            
          AF    1            
          CN    2.2          
           D     .52         


               X_U5B.x_lm358.qx 
               PNP             
       LEVEL    1            
          IS  800.000000E-18 
          BF  166.7          
          NF    1            
          BR    1            
          NR    1            
         ISS    0            
          RE    0            
          RC    0            
         CJE    0            
         VJE     .75         
         CJC    0            
         VJC     .75         
         MJC     .33         
        XCJC    1            
         CJS    0            
         VJS     .75         
          KF    0            
          AF    1            
          CN    2.2          
           D     .52         


               X_U6A.x_lm358.qx 
               PNP             
       LEVEL    1            
          IS  800.000000E-18 
          BF  166.7          
          NF    1            
          BR    1            
          NR    1            
         ISS    0            
          RE    0            
          RC    0            
         CJE    0            
         VJE     .75         
         CJC    0            
         VJC     .75         
         MJC     .33         
        XCJC    1            
         CJS    0            
         VJS     .75         
          KF    0            
          AF    1            
          CN    2.2          
           D     .52         


**** 05/22/23 12:02:11 **** PSpice 22.1.0 (9 December 2022) *** ID# 0 ********

 ** Profile: "SCHEMATIC1-montecarlo_timp"  [ C:\Miruna\PROIECT_ORCAD\Proiect-PSpiceFiles\SCHEMATIC1\montecarlo_timp.sim ] 


 ****     Resistor MODEL PARAMETERS


******************************************************************************




               R_R3            R_R5            R_R6            R_R7            
           R    1               1               1               1            


               R_R8            R_R9            R_R10           R_R11           
           R    1               1               1               1            


               R_R12           R_RL            R_R14           R_R15           
           R    1               1               1               1            


               R_R16           R_R17           
           R    1               1            


**** 05/22/23 12:02:11 **** PSpice 22.1.0 (9 December 2022) *** ID# 0 ********

 ** Profile: "SCHEMATIC1-montecarlo_timp"  [ C:\Miruna\PROIECT_ORCAD\Proiect-PSpiceFiles\SCHEMATIC1\montecarlo_timp.sim ] 


 ****     Current Controlled Switch MODEL PARAMETERS


******************************************************************************




               X_U4A.x_lm358.sw2 
         RON    1            
        ROFF   10.000000E+06 
         ION    0            
        IOFF   -1.000000E-06 


               X_U4A.x_lm358.sw1 
         RON    1            
        ROFF   10.000000E+06 
         ION   -1.000000E-06 
        IOFF    0            


               X_U4A.x_lm358.sw3 
         RON    1            
        ROFF   10.000000E+06 
         ION   -1.000000E-06 
        IOFF    0            


               X_U4A.x_lm358.sw4 
         RON    1            
        ROFF   10.000000E+06 
         ION    0            
        IOFF   -1.000000E-06 


               X_U4B.x_lm358.sw2 
         RON    1            
        ROFF   10.000000E+06 
         ION    0            
        IOFF   -1.000000E-06 


               X_U4B.x_lm358.sw1 
         RON    1            
        ROFF   10.000000E+06 
         ION   -1.000000E-06 
        IOFF    0            


               X_U4B.x_lm358.sw3 
         RON    1            
        ROFF   10.000000E+06 
         ION   -1.000000E-06 
        IOFF    0            


               X_U4B.x_lm358.sw4 
         RON    1            
        ROFF   10.000000E+06 
         ION    0            
        IOFF   -1.000000E-06 


               X_U5A.x_lm358.sw2 
         RON    1            
        ROFF   10.000000E+06 
         ION    0            
        IOFF   -1.000000E-06 


               X_U5A.x_lm358.sw1 
         RON    1            
        ROFF   10.000000E+06 
         ION   -1.000000E-06 
        IOFF    0            


               X_U5A.x_lm358.sw3 
         RON    1            
        ROFF   10.000000E+06 
         ION   -1.000000E-06 
        IOFF    0            


               X_U5A.x_lm358.sw4 
         RON    1            
        ROFF   10.000000E+06 
         ION    0            
        IOFF   -1.000000E-06 


               X_U5B.x_lm358.sw2 
         RON    1            
        ROFF   10.000000E+06 
         ION    0            
        IOFF   -1.000000E-06 


               X_U5B.x_lm358.sw1 
         RON    1            
        ROFF   10.000000E+06 
         ION   -1.000000E-06 
        IOFF    0            


               X_U5B.x_lm358.sw3 
         RON    1            
        ROFF   10.000000E+06 
         ION   -1.000000E-06 
        IOFF    0            


               X_U5B.x_lm358.sw4 
         RON    1            
        ROFF   10.000000E+06 
         ION    0            
        IOFF   -1.000000E-06 


               X_U6A.x_lm358.sw2 
         RON    1            
        ROFF   10.000000E+06 
         ION    0            
        IOFF   -1.000000E-06 


               X_U6A.x_lm358.sw1 
         RON    1            
        ROFF   10.000000E+06 
         ION   -1.000000E-06 
        IOFF    0            


               X_U6A.x_lm358.sw3 
         RON    1            
        ROFF   10.000000E+06 
         ION   -1.000000E-06 
        IOFF    0            


               X_U6A.x_lm358.sw4 
         RON    1            
        ROFF   10.000000E+06 
         ION    0            
        IOFF   -1.000000E-06 


**** 05/22/23 12:02:11 **** PSpice 22.1.0 (9 December 2022) *** ID# 0 ********

 ** Profile: "SCHEMATIC1-montecarlo_timp"  [ C:\Miruna\PROIECT_ORCAD\Proiect-PSpiceFiles\SCHEMATIC1\montecarlo_timp.sim ] 


 ****     INITIAL TRANSIENT SOLUTION       TEMPERATURE =   27.000 DEG C

                      MONTE CARLO NOMINAL

******************************************************************************



 NODE   VOLTAGE     NODE   VOLTAGE     NODE   VOLTAGE     NODE   VOLTAGE


(  OUT)  -16.9890  (  VCC)   17.0000  ( -VCC)  -17.0000  ( REF1)    2.2932      

( REF2)   10.2070  (N00075)     .6232 (N00177)    9.9737 (N00390)    9.9702     

(N00477)    6.3838 (N00618)    6.3814 (N00681)   13.6580 (N00786)    3.1244     

(N01788)  -16.9890 (N01792)   17.0000 (N02007)  -16.9890 (N02701)    2.2941     

(N03121)   10.2100 (N12559)    4.0000 (X_U4A.x_lm358.6)    1.4942               

(X_U4A.x_lm358.7)  -19.0200           (X_U4A.x_lm358.8)  -19.0200               

(X_U4A.x_lm358.9)    0.0000           (X_U4A.x_lm358.a)     .0406               

(X_U4A.x_lm358.b)  -16.9590           (X_U4B.x_lm358.6)    -.0026               

(X_U4B.x_lm358.7)   13.8630           (X_U4B.x_lm358.8)   13.8630               

(X_U4B.x_lm358.9)    0.0000           (X_U4B.x_lm358.a)   16.9960               

(X_U4B.x_lm358.b)    -.0041           (X_U5A.x_lm358.6)    -.0019               

(X_U5A.x_lm358.7)   10.1490           (X_U5A.x_lm358.8)   10.1490               

(X_U5A.x_lm358.9)    0.0000           (X_U5A.x_lm358.a)   16.9960               

(X_U5A.x_lm358.b)    -.0036           (X_U5B.x_lm358.6)    -.0020               

(X_U5B.x_lm358.7)   10.5610           (X_U5B.x_lm358.8)   10.5610               

(X_U5B.x_lm358.9)    0.0000           (X_U5B.x_lm358.a)   16.9930               

(X_U5B.x_lm358.b)    -.0071           (X_U6A.x_lm358.6)-373.7E-06               

(X_U6A.x_lm358.7)    2.0888           (X_U6A.x_lm358.8)    2.0888               

(X_U6A.x_lm358.9)    0.0000           (X_U6A.x_lm358.a)     .0041               

(X_U6A.x_lm358.b)  -16.9960           (X_U4A.x_lm358.10)    3.7630              

(X_U4A.x_lm358.11)  -17.0000          (X_U4A.x_lm358.12)  -16.9220              

(X_U4A.x_lm358.13)    3.7630          (X_U4A.x_lm358.14)    3.7357              

(X_U4A.x_lm358.53)   15.5000          (X_U4A.x_lm358.54)  -16.1780              

(X_U4A.x_lm358.90)  -40.6100          (X_U4A.x_lm358.91)   40.0000              

(X_U4A.x_lm358.92)  -40.0000          (X_U4A.x_lm358.99)    0.0000              

(X_U4B.x_lm358.10)    6.9890          (X_U4B.x_lm358.11)  -16.9600              

(X_U4B.x_lm358.12)  -16.9630          (X_U4B.x_lm358.13)    6.9751              

(X_U4B.x_lm358.14)    6.9759          (X_U4B.x_lm358.53)   15.5000              

(X_U4B.x_lm358.54)  -16.1780          (X_U4B.x_lm358.90)    4.0882              

(X_U4B.x_lm358.91)   40.0000          (X_U4B.x_lm358.92)  -40.0000              

(X_U4B.x_lm358.99)    0.0000          (X_U5A.x_lm358.10)   10.5780              

(X_U5A.x_lm358.11)  -16.9610          (X_U5A.x_lm358.12)  -16.9640              

(X_U5A.x_lm358.13)   10.5640          (X_U5A.x_lm358.14)   10.5650              

(X_U5A.x_lm358.53)   15.5000          (X_U5A.x_lm358.54)  -16.1780              

(X_U5A.x_lm358.90)    3.5863          (X_U5A.x_lm358.91)   40.0000              

(X_U5A.x_lm358.92)  -40.0000          (X_U5A.x_lm358.99)    0.0000              

(X_U5B.x_lm358.10)   10.8140          (X_U5B.x_lm358.11)  -16.9610              

(X_U5B.x_lm358.12)  -16.9640          (X_U5B.x_lm358.13)   10.8000              

(X_U5B.x_lm358.14)   10.8010          (X_U5B.x_lm358.53)   15.5000              

(X_U5B.x_lm358.54)  -16.1780          (X_U5B.x_lm358.90)    7.0821              

(X_U5B.x_lm358.91)   40.0000          (X_U5B.x_lm358.92)  -40.0000              

(X_U5B.x_lm358.99)    0.0000          (X_U6A.x_lm358.10)    2.9009              

(X_U6A.x_lm358.11)  -16.9600          (X_U6A.x_lm358.12)  -16.9610              

(X_U6A.x_lm358.13)    2.8870          (X_U6A.x_lm358.14)    2.8873              

(X_U6A.x_lm358.53)   15.5000          (X_U6A.x_lm358.54)  -16.1780              

(X_U6A.x_lm358.90)   -4.0883          (X_U6A.x_lm358.91)   40.0000              

(X_U6A.x_lm358.92)  -40.0000          (X_U6A.x_lm358.99)    0.0000          




    VOLTAGE SOURCE CURRENTS
    NAME         CURRENT

    V_V1        -5.937E-02
    V_V2         2.997E-02
    V_V3        -2.212E-01
    X_U4A.x_lm358.vb   1.494E-05
    X_U4A.x_lm358.vc   3.249E-11
    X_U4A.x_lm358.ve  -3.353E-02
    X_U4A.x_lm358.vlim  -4.061E-02
    X_U4A.x_lm358.vlp  -8.061E-11
    X_U4A.x_lm358.vln   1.414E-05
    X_U4B.x_lm358.vb  -2.633E-08
    X_U4B.x_lm358.vc   1.842E-12
    X_U4B.x_lm358.ve   3.205E-11
    X_U4B.x_lm358.vlim   4.088E-03
    X_U4B.x_lm358.vlp  -3.591E-11
    X_U4B.x_lm358.vln  -4.409E-11
    X_U5A.x_lm358.vb  -1.931E-08
    X_U5A.x_lm358.vc   5.531E-12
    X_U5A.x_lm358.ve   2.836E-11
    X_U5A.x_lm358.vlim   3.586E-03
    X_U5A.x_lm358.vlp  -3.641E-11
    X_U5A.x_lm358.vln  -4.359E-11
    X_U5B.x_lm358.vb  -2.025E-08
    X_U5B.x_lm358.vc   5.294E-12
    X_U5B.x_lm358.ve   2.860E-11
    X_U5B.x_lm358.vlim   7.082E-03
    X_U5B.x_lm358.vlp  -3.292E-11
    X_U5B.x_lm358.vln  -4.709E-11
    X_U6A.x_lm358.vb  -3.737E-09
    X_U6A.x_lm358.vc   1.321E-11
    X_U6A.x_lm358.ve   2.069E-11
    X_U6A.x_lm358.vlim  -4.088E-03
    X_U6A.x_lm358.vlp  -4.409E-11
    X_U6A.x_lm358.vln  -3.592E-11

    TOTAL POWER DISSIPATION   2.43E+00  WATTS


**** 05/22/23 12:02:11 **** PSpice 22.1.0 (9 December 2022) *** ID# 0 ********

 ** Profile: "SCHEMATIC1-montecarlo_timp"  [ C:\Miruna\PROIECT_ORCAD\Proiect-PSpiceFiles\SCHEMATIC1\montecarlo_timp.sim ] 


 ****     INITIAL TRANSIENT SOLUTION       TEMPERATURE =   27.000 DEG C

                      MONTE CARLO PASS 2

******************************************************************************



